!Agilent Technologies,E5071C,MY46101918,A.08.10
!Date: Mon Jan 01 00:04:14 2001
!Data & Calibration Information:
!Freq	S11:NONE(--)	S21:NONE(--)	S12:NONE(--)	S22:NONE(--)
# Hz S dB R 50
100000	-1.097382e-001	1.797579e+002	-2.000000e+002	0.000000e+000	-2.000000e+002	0.000000e+000	-2.000000e+002	0.000000e+000
20099500	-2.216845e-001	1.388957e+002	-2.000000e+002	0.000000e+000	-2.000000e+002	0.000000e+000	-2.000000e+002	0.000000e+000
40099000	-2.674272e-001	9.858955e+001	-2.000000e+002	0.000000e+000	-2.000000e+002	0.000000e+000	-2.000000e+002	0.000000e+000
60098500	-3.088893e-001	5.842294e+001	-2.000000e+002	0.000000e+000	-2.000000e+002	0.000000e+000	-2.000000e+002	0.000000e+000
80098000	-3.567530e-001	1.835911e+001	-2.000000e+002	0.000000e+000	-2.000000e+002	0.000000e+000	-2.000000e+002	0.000000e+000
100097500	-4.187297e-001	-2.167184e+001	-2.000000e+002	0.000000e+000	-2.000000e+002	0.000000e+000	-2.000000e+002	0.000000e+000
120097000	-4.846212e-001	-6.167558e+001	-2.000000e+002	0.000000e+000	-2.000000e+002	0.000000e+000	-2.000000e+002	0.000000e+000
140096500	-5.718391e-001	-1.017945e+002	-2.000000e+002	0.000000e+000	-2.000000e+002	0.000000e+000	-2.000000e+002	0.000000e+000
160096000	-6.697652e-001	-1.419051e+002	-2.000000e+002	0.000000e+000	-2.000000e+002	0.000000e+000	-2.000000e+002	0.000000e+000
180095500	-7.687216e-001	1.780254e+002	-2.000000e+002	0.000000e+000	-2.000000e+002	0.000000e+000	-2.000000e+002	0.000000e+000
200095000	-8.547640e-001	1.380151e+002	-2.000000e+002	0.000000e+000	-2.000000e+002	0.000000e+000	-2.000000e+002	0.000000e+000
220094500	-9.408365e-001	9.797158e+001	-2.000000e+002	0.000000e+000	-2.000000e+002	0.000000e+000	-2.000000e+002	0.000000e+000
240094000	-1.028491e+000	5.793243e+001	-2.000000e+002	0.000000e+000	-2.000000e+002	0.000000e+000	-2.000000e+002	0.000000e+000
260093500	-1.092698e+000	1.801606e+001	-2.000000e+002	0.000000e+000	-2.000000e+002	0.000000e+000	-2.000000e+002	0.000000e+000
280093000	-1.158485e+000	-2.200447e+001	-2.000000e+002	0.000000e+000	-2.000000e+002	0.000000e+000	-2.000000e+002	0.000000e+000
300092500	-1.234247e+000	-6.218844e+001	-2.000000e+002	0.000000e+000	-2.000000e+002	0.000000e+000	-2.000000e+002	0.000000e+000
320092000	-1.321081e+000	-1.023628e+002	-2.000000e+002	0.000000e+000	-2.000000e+002	0.000000e+000	-2.000000e+002	0.000000e+000
340091500	-1.415426e+000	-1.425290e+002	-2.000000e+002	0.000000e+000	-2.000000e+002	0.000000e+000	-2.000000e+002	0.000000e+000
360091000	-1.518136e+000	1.774906e+002	-2.000000e+002	0.000000e+000	-2.000000e+002	0.000000e+000	-2.000000e+002	0.000000e+000
380090500	-1.627916e+000	1.376050e+002	-2.000000e+002	0.000000e+000	-2.000000e+002	0.000000e+000	-2.000000e+002	0.000000e+000
400090000	-1.719351e+000	9.779405e+001	-2.000000e+002	0.000000e+000	-2.000000e+002	0.000000e+000	-2.000000e+002	0.000000e+000
420089500	-1.833130e+000	5.773039e+001	-2.000000e+002	0.000000e+000	-2.000000e+002	0.000000e+000	-2.000000e+002	0.000000e+000
440089000	-1.964192e+000	1.725042e+001	-2.000000e+002	0.000000e+000	-2.000000e+002	0.000000e+000	-2.000000e+002	0.000000e+000
460088500	-2.110330e+000	-2.340050e+001	-2.000000e+002	0.000000e+000	-2.000000e+002	0.000000e+000	-2.000000e+002	0.000000e+000
480088000	-2.272850e+000	-6.418649e+001	-2.000000e+002	0.000000e+000	-2.000000e+002	0.000000e+000	-2.000000e+002	0.000000e+000
500087500	-2.520399e+000	-1.049107e+002	-2.000000e+002	0.000000e+000	-2.000000e+002	0.000000e+000	-2.000000e+002	0.000000e+000
520087000	-2.655772e+000	-1.459432e+002	-2.000000e+002	0.000000e+000	-2.000000e+002	0.000000e+000	-2.000000e+002	0.000000e+000
540086500	-2.922270e+000	1.733046e+002	-2.000000e+002	0.000000e+000	-2.000000e+002	0.000000e+000	-2.000000e+002	0.000000e+000
560086000	-3.251625e+000	1.326637e+002	-2.000000e+002	0.000000e+000	-2.000000e+002	0.000000e+000	-2.000000e+002	0.000000e+000
580085500	-3.675029e+000	9.185755e+001	-2.000000e+002	0.000000e+000	-2.000000e+002	0.000000e+000	-2.000000e+002	0.000000e+000
600085000	-4.142876e+000	5.070230e+001	-2.000000e+002	0.000000e+000	-2.000000e+002	0.000000e+000	-2.000000e+002	0.000000e+000
620084500	-4.723883e+000	9.217718e+000	-2.000000e+002	0.000000e+000	-2.000000e+002	0.000000e+000	-2.000000e+002	0.000000e+000
640084000	-5.377839e+000	-3.229343e+001	-2.000000e+002	0.000000e+000	-2.000000e+002	0.000000e+000	-2.000000e+002	0.000000e+000
660083500	-6.129201e+000	-7.344693e+001	-2.000000e+002	0.000000e+000	-2.000000e+002	0.000000e+000	-2.000000e+002	0.000000e+000
680083000	-6.900911e+000	-1.143574e+002	-2.000000e+002	0.000000e+000	-2.000000e+002	0.000000e+000	-2.000000e+002	0.000000e+000
700082500	-7.829261e+000	-1.540413e+002	-2.000000e+002	0.000000e+000	-2.000000e+002	0.000000e+000	-2.000000e+002	0.000000e+000
720082000	-8.826860e+000	1.669817e+002	-2.000000e+002	0.000000e+000	-2.000000e+002	0.000000e+000	-2.000000e+002	0.000000e+000
740081500	-1.003249e+001	1.291964e+002	-2.000000e+002	0.000000e+000	-2.000000e+002	0.000000e+000	-2.000000e+002	0.000000e+000
760081000	-1.136040e+001	9.209959e+001	-2.000000e+002	0.000000e+000	-2.000000e+002	0.000000e+000	-2.000000e+002	0.000000e+000
780080500	-1.288322e+001	5.695264e+001	-2.000000e+002	0.000000e+000	-2.000000e+002	0.000000e+000	-2.000000e+002	0.000000e+000
800080000	-1.455221e+001	2.285134e+001	-2.000000e+002	0.000000e+000	-2.000000e+002	0.000000e+000	-2.000000e+002	0.000000e+000
820079500	-1.646723e+001	-7.507471e+000	-2.000000e+002	0.000000e+000	-2.000000e+002	0.000000e+000	-2.000000e+002	0.000000e+000
840079000	-1.835579e+001	-3.523229e+001	-2.000000e+002	0.000000e+000	-2.000000e+002	0.000000e+000	-2.000000e+002	0.000000e+000
860078500	-1.986320e+001	-5.639143e+001	-2.000000e+002	0.000000e+000	-2.000000e+002	0.000000e+000	-2.000000e+002	0.000000e+000
880078000	-2.027577e+001	-7.513167e+001	-2.000000e+002	0.000000e+000	-2.000000e+002	0.000000e+000	-2.000000e+002	0.000000e+000
900077500	-1.943931e+001	-9.649421e+001	-2.000000e+002	0.000000e+000	-2.000000e+002	0.000000e+000	-2.000000e+002	0.000000e+000
920077000	-1.789155e+001	-1.235757e+002	-2.000000e+002	0.000000e+000	-2.000000e+002	0.000000e+000	-2.000000e+002	0.000000e+000
940076500	-1.635280e+001	-1.566372e+002	-2.000000e+002	0.000000e+000	-2.000000e+002	0.000000e+000	-2.000000e+002	0.000000e+000
960076000	-1.498767e+001	1.694470e+002	-2.000000e+002	0.000000e+000	-2.000000e+002	0.000000e+000	-2.000000e+002	0.000000e+000
980075500	-1.352852e+001	1.335080e+002	-2.000000e+002	0.000000e+000	-2.000000e+002	0.000000e+000	-2.000000e+002	0.000000e+000
1000075000	-1.250951e+001	9.534623e+001	-2.000000e+002	0.000000e+000	-2.000000e+002	0.000000e+000	-2.000000e+002	0.000000e+000
1020074500	-1.124193e+001	5.776188e+001	-2.000000e+002	0.000000e+000	-2.000000e+002	0.000000e+000	-2.000000e+002	0.000000e+000
1040074000	-1.027776e+001	1.947259e+001	-2.000000e+002	0.000000e+000	-2.000000e+002	0.000000e+000	-2.000000e+002	0.000000e+000
1060073500	-9.413882e+000	-1.877420e+001	-2.000000e+002	0.000000e+000	-2.000000e+002	0.000000e+000	-2.000000e+002	0.000000e+000
1080073000	-8.773412e+000	-5.788551e+001	-2.000000e+002	0.000000e+000	-2.000000e+002	0.000000e+000	-2.000000e+002	0.000000e+000
1100072500	-8.213714e+000	-9.722773e+001	-2.000000e+002	0.000000e+000	-2.000000e+002	0.000000e+000	-2.000000e+002	0.000000e+000
1120072000	-7.707233e+000	-1.363609e+002	-2.000000e+002	0.000000e+000	-2.000000e+002	0.000000e+000	-2.000000e+002	0.000000e+000
1140071500	-7.197768e+000	-1.757154e+002	-2.000000e+002	0.000000e+000	-2.000000e+002	0.000000e+000	-2.000000e+002	0.000000e+000
1160071000	-6.796756e+000	1.442891e+002	-2.000000e+002	0.000000e+000	-2.000000e+002	0.000000e+000	-2.000000e+002	0.000000e+000
1180070500	-6.441467e+000	1.041337e+002	-2.000000e+002	0.000000e+000	-2.000000e+002	0.000000e+000	-2.000000e+002	0.000000e+000
1200070000	-6.106004e+000	6.438479e+001	-2.000000e+002	0.000000e+000	-2.000000e+002	0.000000e+000	-2.000000e+002	0.000000e+000
1220069500	-5.801695e+000	2.463409e+001	-2.000000e+002	0.000000e+000	-2.000000e+002	0.000000e+000	-2.000000e+002	0.000000e+000
1240069000	-5.599119e+000	-1.547999e+001	-2.000000e+002	0.000000e+000	-2.000000e+002	0.000000e+000	-2.000000e+002	0.000000e+000
1260068500	-5.473736e+000	-5.584317e+001	-2.000000e+002	0.000000e+000	-2.000000e+002	0.000000e+000	-2.000000e+002	0.000000e+000
1280068000	-5.328900e+000	-9.598599e+001	-2.000000e+002	0.000000e+000	-2.000000e+002	0.000000e+000	-2.000000e+002	0.000000e+000
1300067500	-5.180580e+000	-1.358958e+002	-2.000000e+002	0.000000e+000	-2.000000e+002	0.000000e+000	-2.000000e+002	0.000000e+000
1320067000	-5.054418e+000	-1.760544e+002	-2.000000e+002	0.000000e+000	-2.000000e+002	0.000000e+000	-2.000000e+002	0.000000e+000
1340066500	-4.951922e+000	1.440836e+002	-2.000000e+002	0.000000e+000	-2.000000e+002	0.000000e+000	-2.000000e+002	0.000000e+000
1360066000	-4.871118e+000	1.044840e+002	-2.000000e+002	0.000000e+000	-2.000000e+002	0.000000e+000	-2.000000e+002	0.000000e+000
1380065500	-4.834584e+000	6.503986e+001	-2.000000e+002	0.000000e+000	-2.000000e+002	0.000000e+000	-2.000000e+002	0.000000e+000
1400065000	-4.858487e+000	2.523136e+001	-2.000000e+002	0.000000e+000	-2.000000e+002	0.000000e+000	-2.000000e+002	0.000000e+000
1420064500	-4.952088e+000	-1.507380e+001	-2.000000e+002	0.000000e+000	-2.000000e+002	0.000000e+000	-2.000000e+002	0.000000e+000
1440064000	-5.060144e+000	-5.594552e+001	-2.000000e+002	0.000000e+000	-2.000000e+002	0.000000e+000	-2.000000e+002	0.000000e+000
1460063500	-5.136548e+000	-9.697373e+001	-2.000000e+002	0.000000e+000	-2.000000e+002	0.000000e+000	-2.000000e+002	0.000000e+000
1480063000	-5.171309e+000	-1.378666e+002	-2.000000e+002	0.000000e+000	-2.000000e+002	0.000000e+000	-2.000000e+002	0.000000e+000
1500062500	-5.113576e+000	-1.783728e+002	-2.000000e+002	0.000000e+000	-2.000000e+002	0.000000e+000	-2.000000e+002	0.000000e+000
1520062000	-5.162855e+000	1.422588e+002	-2.000000e+002	0.000000e+000	-2.000000e+002	0.000000e+000	-2.000000e+002	0.000000e+000
1540061500	-5.180352e+000	1.035590e+002	-2.000000e+002	0.000000e+000	-2.000000e+002	0.000000e+000	-2.000000e+002	0.000000e+000
1560061000	-5.309794e+000	6.498944e+001	-2.000000e+002	0.000000e+000	-2.000000e+002	0.000000e+000	-2.000000e+002	0.000000e+000
1580060500	-5.558557e+000	2.598502e+001	-2.000000e+002	0.000000e+000	-2.000000e+002	0.000000e+000	-2.000000e+002	0.000000e+000
1600060000	-5.921790e+000	-1.387612e+001	-2.000000e+002	0.000000e+000	-2.000000e+002	0.000000e+000	-2.000000e+002	0.000000e+000
1620059500	-6.337617e+000	-5.484554e+001	-2.000000e+002	0.000000e+000	-2.000000e+002	0.000000e+000	-2.000000e+002	0.000000e+000
1640059000	-6.741738e+000	-9.666639e+001	-2.000000e+002	0.000000e+000	-2.000000e+002	0.000000e+000	-2.000000e+002	0.000000e+000
1660058500	-7.061441e+000	-1.390750e+002	-2.000000e+002	0.000000e+000	-2.000000e+002	0.000000e+000	-2.000000e+002	0.000000e+000
1680058000	-7.277376e+000	1.788847e+002	-2.000000e+002	0.000000e+000	-2.000000e+002	0.000000e+000	-2.000000e+002	0.000000e+000
1700057500	-7.394337e+000	1.377898e+002	-2.000000e+002	0.000000e+000	-2.000000e+002	0.000000e+000	-2.000000e+002	0.000000e+000
1720057000	-7.551096e+000	9.778820e+001	-2.000000e+002	0.000000e+000	-2.000000e+002	0.000000e+000	-2.000000e+002	0.000000e+000
1740056500	-7.792248e+000	5.859348e+001	-2.000000e+002	0.000000e+000	-2.000000e+002	0.000000e+000	-2.000000e+002	0.000000e+000
1760056000	-8.190534e+000	1.956083e+001	-2.000000e+002	0.000000e+000	-2.000000e+002	0.000000e+000	-2.000000e+002	0.000000e+000
1780055500	-8.712167e+000	-1.976423e+001	-2.000000e+002	0.000000e+000	-2.000000e+002	0.000000e+000	-2.000000e+002	0.000000e+000
1800055000	-9.343622e+000	-5.975344e+001	-2.000000e+002	0.000000e+000	-2.000000e+002	0.000000e+000	-2.000000e+002	0.000000e+000
1820054500	-1.000618e+001	-1.003842e+002	-2.000000e+002	0.000000e+000	-2.000000e+002	0.000000e+000	-2.000000e+002	0.000000e+000
1840054000	-1.060566e+001	-1.414961e+002	-2.000000e+002	0.000000e+000	-2.000000e+002	0.000000e+000	-2.000000e+002	0.000000e+000
1860053500	-1.107461e+001	1.778850e+002	-2.000000e+002	0.000000e+000	-2.000000e+002	0.000000e+000	-2.000000e+002	0.000000e+000
1880053000	-1.153503e+001	1.378766e+002	-2.000000e+002	0.000000e+000	-2.000000e+002	0.000000e+000	-2.000000e+002	0.000000e+000
1900052500	-1.207144e+001	9.894267e+001	-2.000000e+002	0.000000e+000	-2.000000e+002	0.000000e+000	-2.000000e+002	0.000000e+000
1920052000	-1.272212e+001	6.089042e+001	-2.000000e+002	0.000000e+000	-2.000000e+002	0.000000e+000	-2.000000e+002	0.000000e+000
1940051500	-1.362094e+001	2.318177e+001	-2.000000e+002	0.000000e+000	-2.000000e+002	0.000000e+000	-2.000000e+002	0.000000e+000
1960051000	-1.466109e+001	-1.486122e+001	-2.000000e+002	0.000000e+000	-2.000000e+002	0.000000e+000	-2.000000e+002	0.000000e+000
1980050500	-1.570013e+001	-5.319851e+001	-2.000000e+002	0.000000e+000	-2.000000e+002	0.000000e+000	-2.000000e+002	0.000000e+000
2000050000	-1.723220e+001	-7.869869e+001	-2.000000e+002	0.000000e+000	-2.000000e+002	0.000000e+000	-2.000000e+002	0.000000e+000
2020049500	-1.714446e+001	-1.302057e+002	-2.000000e+002	0.000000e+000	-2.000000e+002	0.000000e+000	-2.000000e+002	0.000000e+000
2040049000	-1.746714e+001	-1.668456e+002	-2.000000e+002	0.000000e+000	-2.000000e+002	0.000000e+000	-2.000000e+002	0.000000e+000
2060048500	-1.760922e+001	1.592245e+002	-2.000000e+002	0.000000e+000	-2.000000e+002	0.000000e+000	-2.000000e+002	0.000000e+000
2080048000	-1.768912e+001	1.279948e+002	-2.000000e+002	0.000000e+000	-2.000000e+002	0.000000e+000	-2.000000e+002	0.000000e+000
2100047500	-1.770471e+001	9.723942e+001	-2.000000e+002	0.000000e+000	-2.000000e+002	0.000000e+000	-2.000000e+002	0.000000e+000
2120047000	-1.768527e+001	6.708974e+001	-2.000000e+002	0.000000e+000	-2.000000e+002	0.000000e+000	-2.000000e+002	0.000000e+000
2140046500	-1.763827e+001	3.647111e+001	-2.000000e+002	0.000000e+000	-2.000000e+002	0.000000e+000	-2.000000e+002	0.000000e+000
2160046000	-1.756432e+001	3.724749e+000	-2.000000e+002	0.000000e+000	-2.000000e+002	0.000000e+000	-2.000000e+002	0.000000e+000
2180045500	-1.754974e+001	-3.136916e+001	-2.000000e+002	0.000000e+000	-2.000000e+002	0.000000e+000	-2.000000e+002	0.000000e+000
2200045000	-1.744149e+001	-6.769044e+001	-2.000000e+002	0.000000e+000	-2.000000e+002	0.000000e+000	-2.000000e+002	0.000000e+000
2220044500	-1.722341e+001	-1.064964e+002	-2.000000e+002	0.000000e+000	-2.000000e+002	0.000000e+000	-2.000000e+002	0.000000e+000
2240044000	-1.667185e+001	-1.459805e+002	-2.000000e+002	0.000000e+000	-2.000000e+002	0.000000e+000	-2.000000e+002	0.000000e+000
2260043500	-1.613235e+001	1.739901e+002	-2.000000e+002	0.000000e+000	-2.000000e+002	0.000000e+000	-2.000000e+002	0.000000e+000
2280043000	-1.548597e+001	1.352252e+002	-2.000000e+002	0.000000e+000	-2.000000e+002	0.000000e+000	-2.000000e+002	0.000000e+000
2300042500	-1.482878e+001	9.675253e+001	-2.000000e+002	0.000000e+000	-2.000000e+002	0.000000e+000	-2.000000e+002	0.000000e+000
2320042000	-1.424648e+001	5.850723e+001	-2.000000e+002	0.000000e+000	-2.000000e+002	0.000000e+000	-2.000000e+002	0.000000e+000
2340041500	-1.384084e+001	2.042025e+001	-2.000000e+002	0.000000e+000	-2.000000e+002	0.000000e+000	-2.000000e+002	0.000000e+000
2360041000	-1.362672e+001	-1.821638e+001	-2.000000e+002	0.000000e+000	-2.000000e+002	0.000000e+000	-2.000000e+002	0.000000e+000
2380040500	-1.357838e+001	-5.711122e+001	-2.000000e+002	0.000000e+000	-2.000000e+002	0.000000e+000	-2.000000e+002	0.000000e+000
2400040000	-1.354744e+001	-9.752240e+001	-2.000000e+002	0.000000e+000	-2.000000e+002	0.000000e+000	-2.000000e+002	0.000000e+000
2420039500	-1.362239e+001	-1.394261e+002	-2.000000e+002	0.000000e+000	-2.000000e+002	0.000000e+000	-2.000000e+002	0.000000e+000
2440039000	-1.357586e+001	1.771462e+002	-2.000000e+002	0.000000e+000	-2.000000e+002	0.000000e+000	-2.000000e+002	0.000000e+000
2460038500	-1.332363e+001	1.332340e+002	-2.000000e+002	0.000000e+000	-2.000000e+002	0.000000e+000	-2.000000e+002	0.000000e+000
2480038000	-1.295708e+001	8.974067e+001	-2.000000e+002	0.000000e+000	-2.000000e+002	0.000000e+000	-2.000000e+002	0.000000e+000
2500037500	-1.258403e+001	4.723878e+001	-2.000000e+002	0.000000e+000	-2.000000e+002	0.000000e+000	-2.000000e+002	0.000000e+000
2520037000	-1.219908e+001	5.355345e+000	-2.000000e+002	0.000000e+000	-2.000000e+002	0.000000e+000	-2.000000e+002	0.000000e+000
2540036500	-1.199781e+001	-3.550044e+001	-2.000000e+002	0.000000e+000	-2.000000e+002	0.000000e+000	-2.000000e+002	0.000000e+000
2560036000	-1.190435e+001	-7.669459e+001	-2.000000e+002	0.000000e+000	-2.000000e+002	0.000000e+000	-2.000000e+002	0.000000e+000
2580035500	-1.200782e+001	-1.182727e+002	-2.000000e+002	0.000000e+000	-2.000000e+002	0.000000e+000	-2.000000e+002	0.000000e+000
2600035000	-1.205573e+001	-1.607511e+002	-2.000000e+002	0.000000e+000	-2.000000e+002	0.000000e+000	-2.000000e+002	0.000000e+000
2620034500	-1.210224e+001	1.559733e+002	-2.000000e+002	0.000000e+000	-2.000000e+002	0.000000e+000	-2.000000e+002	0.000000e+000
2640034000	-1.193650e+001	1.126770e+002	-2.000000e+002	0.000000e+000	-2.000000e+002	0.000000e+000	-2.000000e+002	0.000000e+000
2660033500	-1.193112e+001	6.882217e+001	-2.000000e+002	0.000000e+000	-2.000000e+002	0.000000e+000	-2.000000e+002	0.000000e+000
2680033000	-1.203277e+001	2.566252e+001	-2.000000e+002	0.000000e+000	-2.000000e+002	0.000000e+000	-2.000000e+002	0.000000e+000
2700032500	-1.243171e+001	-1.804597e+001	-2.000000e+002	0.000000e+000	-2.000000e+002	0.000000e+000	-2.000000e+002	0.000000e+000
2720032000	-1.293086e+001	-6.248717e+001	-2.000000e+002	0.000000e+000	-2.000000e+002	0.000000e+000	-2.000000e+002	0.000000e+000
2740031500	-1.339181e+001	-1.093004e+002	-2.000000e+002	0.000000e+000	-2.000000e+002	0.000000e+000	-2.000000e+002	0.000000e+000
2760031000	-1.349106e+001	-1.562811e+002	-2.000000e+002	0.000000e+000	-2.000000e+002	0.000000e+000	-2.000000e+002	0.000000e+000
2780030500	-1.320902e+001	1.567093e+002	-2.000000e+002	0.000000e+000	-2.000000e+002	0.000000e+000	-2.000000e+002	0.000000e+000
2800030000	-1.289719e+001	1.122327e+002	-2.000000e+002	0.000000e+000	-2.000000e+002	0.000000e+000	-2.000000e+002	0.000000e+000
2820029500	-1.267005e+001	6.883023e+001	-2.000000e+002	0.000000e+000	-2.000000e+002	0.000000e+000	-2.000000e+002	0.000000e+000
2840029000	-1.277301e+001	2.692425e+001	-2.000000e+002	0.000000e+000	-2.000000e+002	0.000000e+000	-2.000000e+002	0.000000e+000
2860028500	-1.318831e+001	-1.497992e+001	-2.000000e+002	0.000000e+000	-2.000000e+002	0.000000e+000	-2.000000e+002	0.000000e+000
2880028000	-1.366322e+001	-5.824442e+001	-2.000000e+002	0.000000e+000	-2.000000e+002	0.000000e+000	-2.000000e+002	0.000000e+000
2900027500	-1.407686e+001	-1.050907e+002	-2.000000e+002	0.000000e+000	-2.000000e+002	0.000000e+000	-2.000000e+002	0.000000e+000
2920027000	-1.403564e+001	-1.539575e+002	-2.000000e+002	0.000000e+000	-2.000000e+002	0.000000e+000	-2.000000e+002	0.000000e+000
2940026500	-1.349642e+001	1.569001e+002	-2.000000e+002	0.000000e+000	-2.000000e+002	0.000000e+000	-2.000000e+002	0.000000e+000
2960026000	-1.283551e+001	1.103540e+002	-2.000000e+002	0.000000e+000	-2.000000e+002	0.000000e+000	-2.000000e+002	0.000000e+000
2980025500	-1.232581e+001	6.595789e+001	-2.000000e+002	0.000000e+000	-2.000000e+002	0.000000e+000	-2.000000e+002	0.000000e+000
3000025000	-1.214083e+001	2.565318e+001	-2.000000e+002	0.000000e+000	-2.000000e+002	0.000000e+000	-2.000000e+002	0.000000e+000
3020024500	-1.222699e+001	-2.061835e+001	-2.000000e+002	0.000000e+000	-2.000000e+002	0.000000e+000	-2.000000e+002	0.000000e+000
3040024000	-1.234912e+001	-6.501074e+001	-2.000000e+002	0.000000e+000	-2.000000e+002	0.000000e+000	-2.000000e+002	0.000000e+000
3060023500	-1.228834e+001	-1.101401e+002	-2.000000e+002	0.000000e+000	-2.000000e+002	0.000000e+000	-2.000000e+002	0.000000e+000
3080023000	-1.179000e+001	-1.560108e+002	-2.000000e+002	0.000000e+000	-2.000000e+002	0.000000e+000	-2.000000e+002	0.000000e+000
