!Agilent Technologies,E5071C,MY46101914,A.08.10
!Date: Mon Jan 01 01:18:54 2001
!Data & Calibration Information:
!Freq	S11:SOLT2(ON)	S21:SOLT2(ON)	S12:SOLT2(ON)	S22:SOLT2(ON)
# Hz S dB R 50
1030000000	-2.098428e+001	1.477808e+002	-6.804691e+001	5.497542e+001	-7.681766e+001	1.423981e+002	4.985544e-002	5.987037e+001
1030000000	-2.096170e+001	1.475456e+002	-6.660659e+001	3.771007e+001	-6.600584e+001	-2.685844e+001	5.458868e-002	5.989375e+001
1030000000	-2.099250e+001	1.475100e+002	-6.878313e+001	-3.639742e+001	-8.009658e+001	1.205520e+002	5.002864e-002	5.993088e+001
1030000000	-2.100985e+001	1.479099e+002	-8.108670e+001	1.297173e+002	-6.751691e+001	-1.465848e+002	3.746675e-002	5.994543e+001
1030000000	-2.090401e+001	1.480364e+002	-7.197577e+001	-1.139617e+002	-8.498124e+001	6.834185e+001	5.308542e-002	5.988071e+001
1030000000	-2.101871e+001	1.483587e+002	-6.506245e+001	1.110412e+002	-8.044482e+001	-1.774521e+002	5.167577e-002	5.989122e+001
1030000000	-2.100206e+001	1.478953e+002	-8.338396e+001	1.251188e+002	-7.450601e+001	9.664619e+001	3.999640e-002	5.987765e+001
1030000000	-2.097205e+001	1.477387e+002	-7.571492e+001	4.225510e+001	-6.896689e+001	1.171191e+002	5.280608e-002	5.986435e+001
1030000000	-2.094168e+001	1.472788e+002	-7.709574e+001	1.758010e+002	-7.849852e+001	-5.475400e+001	4.820992e-002	5.997042e+001
1030000000	-2.092718e+001	1.473418e+002	-7.854151e+001	-3.156035e+001	-6.817182e+001	2.803776e+001	5.322697e-002	5.990226e+001
1030000000	-2.105142e+001	1.476191e+002	-8.940960e+001	-1.079064e+002	-6.608403e+001	7.772061e+001	5.609910e-002	5.986429e+001
1030000000	-2.093476e+001	1.480794e+002	-7.287470e+001	8.338131e+000	-7.959138e+001	7.497841e+001	5.761504e-002	5.981457e+001
1030000000	-2.100436e+001	1.470780e+002	-7.525891e+001	-1.190946e+002	-7.318978e+001	-1.722546e+002	5.591560e-002	5.990522e+001
1030000000	-2.093814e+001	1.477720e+002	-6.828575e+001	-3.629463e+001	-6.604965e+001	6.932061e+001	5.319991e-002	5.986496e+001
1030000000	-2.099998e+001	1.475952e+002	-7.229061e+001	1.021101e+002	-7.040772e+001	1.706003e+002	5.348642e-002	5.987474e+001
1030000000	-2.099707e+001	1.473003e+002	-7.651767e+001	7.422348e+001	-8.659427e+001	1.168622e+001	5.014808e-002	5.992161e+001
1030000000	-2.102137e+001	1.477732e+002	-6.852067e+001	-3.492818e+001	-8.107190e+001	5.690971e+001	5.696727e-002	5.986726e+001
1030000000	-2.100299e+001	1.477814e+002	-7.639636e+001	8.637410e+000	-8.043654e+001	2.208165e+000	5.148571e-002	5.982699e+001
1030000000	-2.095819e+001	1.480299e+002	-8.241364e+001	1.518399e+002	-7.202400e+001	9.847343e+001	5.932786e-002	5.997201e+001
1030000000	-2.098165e+001	1.477817e+002	-6.757917e+001	-3.799848e+001	-7.252485e+001	3.921067e+000	5.235638e-002	5.984417e+001
1030000000	-2.099716e+001	1.482017e+002	-7.271918e+001	-2.293085e+001	-7.311376e+001	-1.760619e+002	5.431062e-002	5.988353e+001
1030000000	-2.099618e+001	1.478721e+002	-6.659702e+001	-5.704226e+001	-6.967506e+001	-1.708202e+002	5.166890e-002	5.983173e+001
1030000000	-2.095479e+001	1.478986e+002	-7.401838e+001	1.796136e+002	-6.607273e+001	-1.246436e+002	5.669963e-002	5.986237e+001
1030000000	-2.100870e+001	1.478299e+002	-7.775784e+001	1.679553e+002	-6.628618e+001	9.827170e+001	5.227733e-002	5.983338e+001
1030000000	-2.095639e+001	1.480603e+002	-7.854831e+001	1.380101e+002	-7.663134e+001	1.598725e+002	5.179268e-002	5.981322e+001
1030000000	-2.092782e+001	1.475189e+002	-7.949206e+001	-8.119987e+001	-6.627665e+001	8.122748e+000	5.002847e-002	5.980452e+001
1030000000	-2.110035e+001	1.476097e+002	-6.872300e+001	-1.785117e+002	-7.385045e+001	1.214418e+001	4.969315e-002	5.991711e+001
1030000000	-2.099050e+001	1.476915e+002	-8.224439e+001	1.769996e+002	-7.374718e+001	2.998884e+000	4.487572e-002	5.988383e+001
1030000000	-2.100502e+001	1.477768e+002	-7.143724e+001	-1.287388e+002	-7.450501e+001	-1.195760e+002	4.875802e-002	5.987256e+001
1030000000	-2.102026e+001	1.476068e+002	-7.639364e+001	8.897499e+000	-6.998549e+001	4.468327e+001	4.973484e-002	5.987428e+001
1030000000	-2.103856e+001	1.477776e+002	-7.827335e+001	9.112979e+001	-7.913876e+001	3.776374e+000	4.248376e-002	5.987493e+001
1030000000	-2.098815e+001	1.475233e+002	-6.776143e+001	1.092852e+001	-7.525737e+001	6.768268e+000	5.551941e-002	5.984418e+001
1030000000	-2.101967e+001	1.477501e+002	-6.682722e+001	1.140565e+002	-6.830472e+001	-5.141120e+001	5.021586e-002	5.992434e+001
1030000000	-2.093021e+001	1.477714e+002	-7.345055e+001	9.420698e+001	-7.213367e+001	1.573401e+002	3.923648e-002	5.987812e+001
1030000000	-2.098784e+001	1.478100e+002	-7.256623e+001	1.735949e+002	-7.778958e+001	1.157617e+002	6.205353e-002	5.991095e+001
1030000000	-2.091069e+001	1.479315e+002	-7.143286e+001	-1.286148e+002	-7.525241e+001	9.675215e+001	5.775894e-002	5.983786e+001
1030000000	-2.106490e+001	1.477122e+002	-6.274550e+001	-1.263101e+002	-7.300259e+001	-1.029740e+002	4.754007e-002	5.989482e+001
1030000000	-2.102795e+001	1.478002e+002	-7.388077e+001	1.115235e+002	-7.624769e+001	-5.377326e+001	4.615846e-002	5.988097e+001
1030000000	-2.095003e+001	1.478223e+002	-8.241697e+001	6.168789e+001	-7.682283e+001	1.515918e+002	4.871827e-002	5.989023e+001
1030000000	-2.092325e+001	1.480657e+002	-7.469771e+001	1.081118e+002	-6.538715e+001	1.105818e+002	5.384102e-002	5.989556e+001
1030000000	-2.097419e+001	1.481631e+002	-7.783546e+001	1.436593e+002	-6.493457e+001	-1.744838e+002	5.524617e-002	5.985558e+001
1030000000	-2.098959e+001	1.476528e+002	-7.916100e+001	-6.523109e+001	-8.213228e+001	1.554664e+002	5.697981e-002	5.986782e+001
1030000000	-2.096056e+001	1.477022e+002	-8.339065e+001	1.252523e+002	-9.610385e+001	-7.804664e+001	4.362100e-002	5.988765e+001
1030000000	-2.106684e+001	1.477538e+002	-8.735350e+001	5.381475e+001	-7.005259e+001	-1.740891e+002	6.060139e-002	5.989665e+001
1030000000	-2.107189e+001	1.475858e+002	-8.107249e+001	1.297831e+002	-7.203180e+001	1.192510e+001	5.560519e-002	5.982710e+001
1030000000	-2.090520e+001	1.480135e+002	-7.215469e+001	8.774573e+001	-7.514177e+001	1.282902e+002	5.945411e-002	5.985871e+001
1030000000	-2.096561e+001	1.477365e+002	-7.026507e+001	-1.382380e+002	-7.085054e+001	-1.757677e+001	4.862041e-002	5.990834e+001
1030000000	-2.096410e+001	1.475607e+002	-6.490948e+001	5.274077e+001	-7.145921e+001	-5.770760e+001	4.479872e-002	5.985715e+001
1030000000	-2.089173e+001	1.477526e+002	-7.332260e+001	5.942639e+001	-6.765385e+001	9.098012e+001	5.623827e-002	5.991304e+001
1030000000	-2.099560e+001	1.481433e+002	-6.638548e+001	-6.276643e+001	-6.838598e+001	2.623628e+000	5.287907e-002	5.986805e+001
1030000000	-2.104213e+001	1.479058e+002	-6.410726e+001	4.965460e+001	-7.059344e+001	4.392711e+001	5.351120e-002	5.990047e+001
1030000000	-2.100351e+001	1.480329e+002	-7.172587e+001	1.682414e+002	-7.005040e+001	-5.159483e+001	4.042199e-002	5.988607e+001
1030000000	-2.100253e+001	1.483654e+002	-6.974425e+001	-5.364519e+001	-7.848731e+001	-1.014580e+002	5.843935e-002	5.987797e+001
1030000000	-2.102817e+001	1.470872e+002	-7.293541e+001	-1.011425e+002	-7.427303e+001	-6.402398e+001	4.021408e-002	5.979052e+001
1030000000	-2.114399e+001	1.475230e+002	-7.255693e+001	1.739286e+002	-7.475228e+001	3.161135e+001	5.249574e-002	5.985833e+001
1030000000	-2.088752e+001	1.479572e+002	-6.807860e+001	6.717861e+000	-6.748816e+001	1.531847e+002	6.399296e-002	5.990395e+001
1030000000	-2.088753e+001	1.474217e+002	-7.452384e+001	1.745752e+002	-7.150942e+001	-1.716504e+002	5.346943e-002	5.993227e+001
1030000000	-2.098203e+001	1.480149e+002	-6.556856e+001	2.043970e+001	-7.286694e+001	-4.446102e+000	5.144181e-002	5.990315e+001
1030000000	-2.095604e+001	1.471342e+002	-7.069052e+001	-1.093805e+002	-8.311538e+001	-5.175972e+001	5.078416e-002	5.983045e+001
1030000000	-2.107508e+001	1.476474e+002	-7.540785e+001	-7.104463e+001	-7.380866e+001	-4.542103e+001	5.499824e-002	5.989737e+001
1030000000	-2.092854e+001	1.476722e+002	-7.768436e+001	1.530878e+002	-7.912634e+001	1.469991e+002	5.557629e-002	5.984332e+001
1030000000	-2.103692e+001	1.475116e+002	-8.176360e+001	-5.951563e+001	-7.681323e+001	1.789363e+002	6.509105e-002	5.988238e+001
1030000000	-2.100424e+001	1.476683e+002	-7.031367e+001	1.254247e+002	-7.798066e+001	-8.561325e+001	5.395393e-002	5.983710e+001
1030000000	-2.103718e+001	1.474307e+002	-7.806032e+001	8.455202e+001	-6.844203e+001	-1.079943e+002	5.824428e-002	5.990607e+001
1030000000	-2.102741e+001	1.476480e+002	-8.939104e+001	3.500930e+001	-6.521315e+001	-8.120530e+001	6.295898e-002	5.987389e+001
1030000000	-2.095649e+001	1.483753e+002	-6.946311e+001	-1.352630e+002	-7.447248e+001	7.754149e+001	5.749898e-002	5.991403e+001
1030000000	-2.100267e+001	1.481605e+002	-6.839671e+001	3.216259e+001	-7.284950e+001	-9.407674e+001	6.191386e-002	5.986194e+001
1030000000	-2.101698e+001	1.474228e+002	-7.585929e+001	-4.014813e+001	-6.972673e+001	-4.685794e+000	4.550596e-002	5.991580e+001
1030000000	-2.102137e+001	1.473199e+002	-6.780842e+001	7.233585e+001	-8.054515e+001	-1.683201e+002	4.878776e-002	5.982343e+001
1030000000	-2.098342e+001	1.474946e+002	-7.079827e+001	-1.688621e+002	-7.310735e+001	-8.635381e+001	5.019440e-002	5.987296e+001
1030000000	-2.092097e+001	1.473274e+002	-7.853892e+001	-3.114823e+001	-7.137420e+001	9.227487e+001	5.151633e-002	5.985020e+001
1030000000	-2.098224e+001	1.478269e+002	-7.914283e+001	8.254899e+001	-6.682214e+001	-1.622414e+002	5.433500e-002	5.988634e+001
1030000000	-2.094710e+001	1.472554e+002	-7.178936e+001	-1.265689e+002	-6.653799e+001	8.065706e+001	6.717921e-002	5.989230e+001
1030000000	-2.089620e+001	1.473691e+002	-6.913763e+001	-1.741914e+002	-9.309764e+001	5.646366e+001	5.754349e-002	5.983593e+001
1030000000	-2.098858e+001	1.481081e+002	-7.573338e+001	-1.304521e+001	-7.343512e+001	-4.202871e+001	4.196476e-002	5.987000e+001
1030000000	-2.102510e+001	1.477523e+002	-6.989676e+001	6.682128e+001	-7.212645e+001	8.265223e+001	5.739314e-002	5.992801e+001
1030000000	-2.097479e+001	1.476116e+002	-6.921317e+001	3.740649e+001	-7.437862e+001	4.699992e+001	5.509697e-002	5.989370e+001
1030000000	-2.094934e+001	1.471024e+002	-7.620662e+001	1.772515e+002	-7.305993e+001	1.409922e+002	5.849533e-002	5.992721e+001
1030000000	-2.098533e+001	1.479285e+002	-7.269055e+001	2.005842e+001	-7.625141e+001	-1.175995e+001	5.541612e-002	5.988246e+001
1030000000	-2.101781e+001	1.478796e+002	-7.278301e+001	-8.907674e+001	-7.403043e+001	1.465431e+002	4.570730e-002	5.990244e+001
1030000000	-2.107004e+001	1.477467e+002	-7.734540e+001	1.250591e+002	-6.928349e+001	-1.212075e+002	6.882198e-002	5.990153e+001
1030000000	-2.090213e+001	1.482504e+002	-7.061473e+001	1.767243e+002	-6.884329e+001	1.065753e+002	6.300773e-002	5.989765e+001
1030000000	-2.100495e+001	1.473475e+002	-7.044278e+001	-3.676871e+001	-7.497203e+001	-6.268856e+001	5.789812e-002	5.986900e+001
1030000000	-2.092107e+001	1.478134e+002	-6.886256e+001	8.392886e+001	-7.258480e+001	-7.797113e+001	4.828995e-002	5.989742e+001
1030000000	-2.102059e+001	1.476257e+002	-7.464799e+001	-1.365200e+002	-7.353217e+001	-3.579787e+001	5.047940e-002	5.984620e+001
1030000000	-2.094342e+001	1.479916e+002	-7.173365e+001	1.188923e+002	-7.557039e+001	1.505752e+002	5.520908e-002	5.988160e+001
1030000000	-2.092790e+001	1.476060e+002	-8.433600e+001	9.838534e+001	-7.188592e+001	-1.258145e+002	5.310860e-002	5.990008e+001
1030000000	-2.097753e+001	1.479049e+002	-7.570069e+001	-4.795796e+001	-7.127758e+001	-1.014775e+002	5.865702e-002	5.993270e+001
1030000000	-2.097275e+001	1.480762e+002	-7.831532e+001	-8.173911e+001	-7.383904e+001	-1.681934e+002	5.157920e-002	5.984767e+001
1030000000	-2.100085e+001	1.481242e+002	-7.273515e+001	-5.822582e+001	-6.804626e+001	8.362275e+001	5.995663e-002	5.986978e+001
1030000000	-2.091883e+001	1.480693e+002	-6.685093e+001	1.243905e+002	-7.546670e+001	-1.000279e+002	4.826946e-002	5.990551e+001
1030000000	-2.106685e+001	1.476010e+002	-6.840582e+001	3.733502e+001	-6.774997e+001	1.082777e+002	4.973435e-002	5.984302e+001
1030000000	-2.092905e+001	1.476465e+002	-7.477767e+001	-1.664170e+002	-7.221939e+001	3.810695e+001	5.591978e-002	5.990139e+001
1030000000	-2.099557e+001	1.478947e+002	-6.847190e+001	1.479839e+002	-7.107072e+001	1.288168e+002	5.675429e-002	5.987945e+001
1030000000	-2.100884e+001	1.480427e+002	-7.349563e+001	-1.024523e+002	-6.922824e+001	9.665782e+001	5.380170e-002	5.991256e+001
1030000000	-2.085723e+001	1.477581e+002	-7.432803e+001	1.171136e+002	-7.543206e+001	1.358181e+002	5.459377e-002	5.985585e+001
1030000000	-2.095055e+001	1.480867e+002	-7.875080e+001	-1.410478e+001	-6.793596e+001	1.222494e+002	5.139676e-002	5.980411e+001
1030000000	-2.089195e+001	1.476036e+002	-7.285142e+001	-1.184619e+002	-7.779404e+001	-6.365614e+001	5.426066e-002	5.988276e+001
1030000000	-2.098351e+001	1.480575e+002	-7.823767e+001	1.358557e+000	-6.737880e+001	3.599290e+001	5.251266e-002	5.984865e+001
1030000000	-2.094253e+001	1.476646e+002	-9.034357e+001	-8.154403e+001	-6.658571e+001	7.617822e+001	5.331212e-002	5.989327e+001
1030000000	-2.099311e+001	1.475920e+002	-7.539924e+001	-1.610861e+002	-7.197517e+001	-8.521294e+001	5.020531e-002	5.990020e+001
1030000000	-2.089205e+001	1.483121e+002	-6.921872e+001	-1.334796e+002	-6.948815e+001	-4.991617e+001	5.459161e-002	5.988417e+001
1030000000	-2.098740e+001	1.478094e+002	-8.524845e+001	-2.493396e+001	-7.043953e+001	1.299626e+002	5.943579e-002	5.988127e+001
1030000000	-2.089639e+001	1.482176e+002	-7.370794e+001	-4.565665e+001	-7.049755e+001	-8.431515e+001	5.268807e-002	5.988439e+001
1030000000	-2.097694e+001	1.473181e+002	-7.215288e+001	1.095044e+002	-8.498147e+001	6.844607e+001	5.484809e-002	5.985560e+001
1030000000	-2.102482e+001	1.477750e+002	-6.482693e+001	4.584618e+001	-6.983505e+001	-6.397696e+001	4.896040e-002	5.992714e+001
1030000000	-2.096199e+001	1.478439e+002	-8.025307e+001	-1.202044e+002	-7.148963e+001	-1.181371e+002	4.963614e-002	5.987067e+001
1030000000	-2.093544e+001	1.479245e+002	-7.555706e+001	-8.148990e+001	-7.611575e+001	-1.307917e+002	5.667337e-002	5.988892e+001
1030000000	-2.090624e+001	1.473564e+002	-7.028001e+001	-8.982416e+001	-7.755550e+001	-1.233940e+002	4.276134e-002	5.989107e+001
1030000000	-2.092651e+001	1.476410e+002	-6.599313e+001	1.238058e+002	-7.153170e+001	-1.227558e+002	6.063107e-002	5.996357e+001
1030000000	-2.094097e+001	1.477867e+002	-7.201114e+001	3.374058e+001	-7.324528e+001	-5.690097e+001	6.121493e-002	5.989153e+001
1030000000	-2.102745e+001	1.477087e+002	-6.842762e+001	-4.466687e+001	-7.247073e+001	3.503263e+001	5.794052e-002	5.990737e+001
1030000000	-2.107429e+001	1.477492e+002	-6.383216e+001	6.374947e+001	-7.214185e+001	-1.127289e+002	5.325702e-002	5.991908e+001
1030000000	-2.098429e+001	1.481592e+002	-6.899603e+001	1.686909e+002	-7.477513e+001	7.140540e+001	5.538392e-002	5.983516e+001
1030000000	-2.101649e+001	1.484137e+002	-7.344410e+001	4.403511e+000	-7.438051e+001	1.567482e+002	5.218466e-002	5.983487e+001
1030000000	-2.098634e+001	1.479601e+002	-6.671937e+001	-1.616749e+002	-7.913161e+001	-8.641224e+001	4.091856e-002	5.989629e+001
1030000000	-2.098668e+001	1.481561e+002	-7.153381e+001	3.985278e+001	-8.382454e+001	8.784642e+001	5.520568e-002	5.994805e+001
1030000000	-2.104748e+001	1.482278e+002	-6.985366e+001	1.693952e+002	-8.611833e+001	-9.654343e+001	5.445412e-002	5.992278e+001
1030000000	-2.092716e+001	1.485377e+002	-8.037113e+001	-1.529976e+002	-7.195887e+001	-7.056300e+001	5.476470e-002	5.994878e+001
1030000000	-2.096058e+001	1.477110e+002	-6.705741e+001	9.100920e+001	-7.497824e+001	8.681660e+001	5.602365e-002	5.989672e+001
1030000000	-2.089891e+001	1.474300e+002	-8.070401e+001	-8.357831e-001	-7.150870e+001	-3.324424e+001	6.214040e-002	5.986893e+001
1030000000	-2.094814e+001	1.479913e+002	-8.223285e+001	-9.258324e+001	-7.284550e+001	-3.937478e+000	5.290083e-002	5.980636e+001
1030000000	-2.097632e+001	1.489347e+002	-9.036920e+001	8.601489e+000	-6.972131e+001	2.867731e+001	4.694926e-002	5.988719e+001
1030000000	-2.102304e+001	1.473285e+002	-7.110106e+001	1.280677e+002	-7.299215e+001	1.138769e+002	6.020621e-002	5.987534e+001
1030000000	-2.100399e+001	1.474214e+002	-7.502001e+001	2.873105e+001	-7.318517e+001	1.015832e+002	4.554976e-002	5.986593e+001
1030000000	-2.099155e+001	1.482252e+002	-6.901103e+001	-1.280832e+002	-7.587030e+001	1.305540e+002	4.936418e-002	5.985998e+001
1030000000	-2.085935e+001	1.475363e+002	-7.208760e+001	-4.368808e+001	-6.478816e+001	-4.529405e+001	5.186858e-002	5.992312e+001
1030000000	-2.095243e+001	1.472943e+002	-7.524350e+001	-2.923127e+001	-6.943959e+001	1.151640e+002	5.315024e-002	5.984931e+001
1030000000	-2.095692e+001	1.477459e+002	-7.319421e+001	-4.780268e+001	-7.317796e+001	-8.249576e+001	5.380198e-002	5.991980e+001
1030000000	-2.091835e+001	1.474232e+002	-7.410533e+001	1.659721e+002	-6.664710e+001	1.440849e+002	5.784121e-002	5.981551e+001
1030000000	-2.101304e+001	1.480239e+002	-6.786816e+001	1.753541e+002	-8.497934e+001	-1.119037e+002	6.069039e-002	5.980387e+001
1030000000	-2.100343e+001	1.482128e+002	-7.541619e+001	1.787981e+002	-7.799191e+001	-1.613925e+002	5.375400e-002	5.985251e+001
1030000000	-2.100619e+001	1.479424e+002	-7.570507e+001	1.546414e+002	-6.983957e+001	1.312123e+002	6.222327e-002	5.990632e+001
1030000000	-2.094886e+001	1.474589e+002	-7.166542e+001	4.430657e+001	-7.180628e+001	1.388944e+002	5.018409e-002	5.987069e+001
1030000000	-2.093044e+001	1.475088e+002	-6.730776e+001	-9.162794e+001	-7.285163e+001	-6.248867e+001	5.589746e-002	5.978896e+001
1030000000	-2.096169e+001	1.485614e+002	-6.956428e+001	5.182049e+001	-6.366921e+001	6.878470e+001	6.409869e-002	5.987094e+001
1030000000	-2.098196e+001	1.478372e+002	-6.908145e+001	9.108125e+001	-7.259341e+001	-7.856261e+001	5.080159e-002	5.990558e+001
1030000000	-2.096735e+001	1.474233e+002	-7.200175e+001	7.398923e+001	-6.510722e+001	9.191939e+001	5.915536e-002	5.982903e+001
1030000000	-2.100531e+001	1.479941e+002	-6.948426e+001	-1.002916e+002	-8.497685e+001	-2.190833e+001	5.767817e-002	5.985365e+001
1030000000	-2.100150e+001	1.471001e+002	-7.099556e+001	-2.765365e+001	-7.343538e+001	2.881812e+001	4.572666e-002	5.988545e+001
1030000000	-2.098867e+001	1.480068e+002	-6.700013e+001	-7.165628e+001	-7.188186e+001	-8.889849e+001	5.148322e-002	5.988923e+001
1030000000	-2.095558e+001	1.474177e+002	-6.689259e+001	1.380900e+002	-7.414702e+001	1.631943e+002	6.511630e-002	5.984612e+001
1030000000	-2.097897e+001	1.476613e+002	-6.529532e+001	-2.137654e+001	-7.143842e+001	9.516576e+001	5.202857e-002	5.984908e+001
1030000000	-2.090461e+001	1.479504e+002	-7.036563e+001	6.146366e+001	-7.797707e+001	-1.610094e+002	6.192682e-002	5.987060e+001
1030000000	-2.089586e+001	1.477134e+002	-8.035146e+001	-1.532019e+002	-6.832314e+001	9.045287e+001	4.894533e-002	5.987223e+001
1030000000	-2.099468e+001	1.481802e+002	-6.598264e+001	-5.668234e+001	-7.661242e+001	-2.014665e+001	6.504806e-002	5.987672e+001
1030000000	-2.089304e+001	1.478005e+002	-6.992401e+001	3.375283e+001	-7.606485e+001	1.078115e+002	6.844811e-002	5.982957e+001
1030000000	-2.094285e+001	1.476391e+002	-9.035636e+001	9.857247e+001	-8.214469e+001	-1.681400e+002	5.477885e-002	5.991446e+001
1030000000	-2.098715e+001	1.477967e+002	-7.806127e+001	-9.541695e+001	-7.749031e+001	1.222030e+002	5.227139e-002	5.986023e+001
1030000000	-2.106130e+001	1.478086e+002	-6.992324e+001	3.368618e+001	-6.968351e+001	1.018884e+002	5.777248e-002	5.983300e+001
1030000000	-2.097430e+001	1.483318e+002	-6.738047e+001	1.046946e+002	-9.010287e+001	-7.800999e+001	4.801910e-002	5.994785e+001
1030000000	-2.101129e+001	1.475899e+002	-9.336404e+001	5.316562e+001	-7.453328e+001	1.175983e+001	4.457068e-002	5.988638e+001
1030000000	-2.100319e+001	1.478767e+002	-6.870179e+001	1.059607e+002	-7.380141e+001	6.975748e+001	7.077906e-002	5.987818e+001
1030000000	-2.096671e+001	1.476020e+002	-8.407536e+001	8.425760e+001	-7.503676e+001	-1.230098e+002	5.757749e-002	5.987005e+001
1030000000	-2.098103e+001	1.483559e+002	-6.785563e+001	2.169446e+001	-7.779487e+001	1.783528e+002	5.932213e-002	5.991658e+001
1030000000	-2.101292e+001	1.478658e+002	-6.652799e+001	-4.834888e+001	-7.305669e+001	6.240990e+001	5.743088e-002	5.992384e+001
